,f,v_gen,v_in,v_out,phase
0,1000.0,0.0,0.397,0.396,-0.6559108036
1,1117.5427721506885,0.0,0.397,0.396,0.87610069
2,1248.9018475862458,0.0,0.397,0.396,-1.1377385999999998
3,1395.7012328956498,0.0,0.397,0.396,-1.1172236299999998
4,1559.7558249043384,0.0,0.397,0.396,-0.08245179677
5,1743.0938484417782,0.0,0.401,0.396,-0.18465267000000002
6,1947.9819315064371,0.0,0.397,0.396,-0.077190079
7,2176.9531278351565,0.0,0.405,0.396,1.9442785
8,2432.8382333230156,0.0,0.401,0.396,0.262398141
9,2718.8007834619866,0.0,0.405,0.392,-0.32533903000000003
10,3038.3761644755723,0.0,0.405,0.396,2.1260469
11,3395.5153216846074,0.0,0.401,0.396,1.9320766000000003
12,3794.6336054755534,0.0,0.401,0.396,1.3053095
13,4240.665358759312,0.0,0.401,0.396,2.610945
14,4739.124920791276,0.0,0.405,0.392,2.4073814000000002
15,5296.174801549495,0.0,0.405,0.396,1.2988960999999999
16,5918.701869518245,0.0,0.401,0.396,1.5590928
17,6614.402494794883,0.0,0.405,0.392,2.025672
18,7391.877700153511,0.0,0.405,0.396,2.0043965
19,8260.73949642841,0.0,0.405,0.392,2.0440981999999996
20,9231.72971685329,0.0,0.401,0.392,3.7245192000000005
21,10316.852819518117,0.0,0.397,0.392,3.8826861
22,11529.524299794923,0.0,0.401,0.388,5.0459627
23,12884.736547571545,0.0,0.401,0.388,4.909061799999999
24,14399.244199804396,0.0,0.405,0.392,6.757359499999998
25,16091.771279924129,0.0,0.405,0.388,6.333110899999999
26,17983.242684981244,0.0,0.401,0.388,8.092776599999999
27,20097.04288243253,0.0,0.405,0.388,7.996660500000002
28,22459.305014864916,0.0,0.409,0.388,10.390852
29,25099.233986889998,0.0,0.409,0.388,10.633185000000001
30,28049.467528567828,2.421875,0.393,0.3755,12.202245
31,31346.479699226416,0.0,0.405,0.3755,12.389647
32,35031.03182023877,0.0,0.405,0.3715,16.338462999999997
33,39148.67641168862,0.0,0.405,0.3715,17.885622
34,43750.32036314877,2.34375,0.3925,0.3605,21.505529000000003
35,48892.85430111399,0.0,0.4,0.3605,22.5915
36,54639.85593402676,0.0,0.408,0.3605,24.552951999999998
37,61062.376070426515,2.1875,0.393,0.3385,28.902210000000004
38,68239.81702785232,0.0,0.401,0.338,29.228447
39,76260.91429236183,2.109375,0.3975,0.3215,34.043475
40,85224.83356503211,0.0,0.405,0.318,35.1397
41,95242.39675834704,2.03125,0.407,0.30549995,39.543821
42,106437.4520995989,1.875,0.393,0.2795,41.38466
43,118948.40528004189,1.796875,0.397,0.2655,43.61282
44,132929.9305795616,1.71875,0.397,0.2465,48.37889699999999
45,148554.88312168187,1.640625,0.403,0.2365,50.877337999999995
46,166016.4359003259,1.5625,0.402,0.222,55.255202
47,185530.46799862728,1.484375,0.407,0.2065,57.700318
48,207338.23352560055,1.40625,0.405,0.1895,58.69553199999999
49,231709.34426702646,1.2890625,0.402,0.169,62.078093
50,258945.10292539102,1.25,0.408,0.1605,65.815739
51,289382.22815808683,1.171875,0.407,0.1425,66.54101700000001
52,323397.01746693143,1.09375,0.398,0.127,67.73715100000001
53,361409.9994052592,1.015625,0.393,0.1125,70.894408
54,403891.13261833205,0.9765625,0.398,0.10195,75.289269
55,451365.6159933722,0.0,0.41,0.09375,75.71486
56,504420.3817507363,0.9375,0.409,0.0845,75.348214
57,563711.3517510265,0.859375,0.394,0.071,76.41721000000001
58,629971.5467286541,0.0,0.402,0.0632,76.934496
59,704020.148707197,0.8203125,0.395,0.0548,78.420071
60,786772.628636181,0.0,0.404,0.047799995,77.469964
61,879252.064458362,0.0,0.404,0.0406,79.20406399999999
62,982601.7895340137,0.80078125,0.404,0.03295,79.222962
63,1098099.5277960692,0.0,0.408,0.02945,77.80442300000001
64,1227173.1903905813,0.78125,0.394,0.023,74.121889
65,1371418.529098095,0.0,0.402,0.016,35.953181
66,1532618.8647871045,0.0,0.402,0.0094,-41.67354399999999
67,1712767.1348046223,0.0,0.402,0.0058,-23.022724
68,1914090.5318781496,0.0,0.402,0.0106,43.23322499999999
69,2139078.039142493,0.0,0.402,0.016,-73.28500600000001
70,2390511.201709961,0.0,0.402,0.02245,-89.09898600000001
71,2671498.515216229,0.0,0.398,0.02895,-89.31956399999999
72,2985513.856491193,0.0,0.394,0.03425,-86.974935
73,3336439.431477461,0.78125,0.3905,0.0412,-85.22563399999999
74,3728613.7713661892,0.8203125,0.407,0.0504,-83.598512
75,4166885.3703318047,0.0,0.394,0.05605,-83.54772500000001
76,4656672.627994753,0.0,0.394,0.06285,-83.228305
77,5204030.837687489,0.859375,0.399,0.07495,-81.89682
78,5815727.048706946,0.8984375,0.406,0.08445,-82.277055
79,6499323.728083704,0.9375,0.409,0.09365,-79.207718
80,7263272.25618741,0.0,0.393,0.10185,-78.83006800000001
81,8117017.412064864,1.015625,0.401,0.12,-77.09934
82,9071114.140274376,1.09375,0.404,0.132,-74.285995
83,10137358.042817537,1.1328125,0.395,0.141,-72.251312
84,11328931.209454387,1.25,0.41,0.1645,-70.30616500000001
85,12660565.18931811,1.2890625,0.394,0.1725,-68.461089
86,14148723.118665067,1.40625,0.399,0.194,-66.337571
87,15811803.256425494,1.5625,0.408,0.2165,-64.31504500000001
88,17670366.443887033,1.640625,0.394,0.2295,-60.30187599999999
89,19747390.30062002,1.796875,0.3995,0.253,-57.106300999999995
90,22068553.29929656,1.875,0.392,0.26599995,-54.158601999999995
91,24662552.2314511,2.1875,0.407,0.292,-50.088152
92,27561456.989047013,0.0,0.407,0.309,-45.924088000000005
93,30801107.04805157,2.421875,0.397,0.325,-43.21820000000001
94,34421554.555789664,2.578125,0.396,0.35,-40.98874099999999
95,38467559.500013344,2.8125,0.398,0.364,-36.35697699999999
96,42989143.08151647,3.4375,0.392,0.3885,-40.647757
97,48042206.13170051,4.0625,0.391,0.452,-28.734919
98,53689220.2206554,0.0,0.3905,0.43,-23.010412
99,60000000.0,4.84375,0.393,0.4215,-19.935995
